T83F4 000:005.232   SEGGER J-Link V6.86 Log File
T83F4 000:005.413   DLL Compiled: Sep 24 2020 17:31:31
T83F4 000:005.425   Logging started @ 2023-10-01 16:00
T83F4 000:005.437 - 5.443ms
T83F4 000:005.457 JLINK_SetWarnOutHandler(...)
T83F4 000:005.471 - 0.020ms
T83F4 000:005.485 JLINK_OpenEx(...)
T83F4 000:007.398   Firmware: J-Link V9 compiled May  7 2021 16:26:12
T83F4 000:007.548   Decompressing FW timestamp took 107 us
T83F4 000:016.571   Hardware: V9.70
T83F4 000:016.612   S/N: 20723293
T83F4 000:016.629   OEM: SEGGER
T83F4 000:016.646   Feature(s): JFlash
T83F4 000:018.798   TELNET listener socket opened on port 19021
T83F4 000:019.045   WEBSRV Starting webserver
T83F4 000:019.139   WEBSRV Webserver running on local port 19080
T83F4 000:019.157 - 13.677ms returns "O.K."
T83F4 000:019.175 JLINK_GetEmuCaps()
T83F4 000:019.186 - 0.016ms returns 0xB9FF7BBF
T83F4 000:019.203 JLINK_TIF_GetAvailable(...)
T83F4 000:019.697 - 0.518ms
T83F4 000:019.729 JLINK_SetErrorOutHandler(...)
T83F4 000:019.740 - 0.016ms
T83F4 000:019.768 JLINK_ExecCommand("ProjectFile = "C:\UserData\00Myproj\open-link\examples\gd32f425rg\proj_app\JLinkSettings.ini"", ...). 
T83F4 000:026.530   XML file found at: C:\Keil_v5\ARM\Segger\JLinkDevices.xml
T83F4 000:027.065   C:\Keil_v5\ARM\Segger\JLinkDevices.xml evaluated successfully.
T83F4 000:095.688   Device "GD32F405RG" selected.
T83F4 000:096.071 - 76.311ms returns 0x00
T83F4 000:097.059 JLINK_ExecCommand("Device = GD32F425RG", ...). 
T83F4 000:098.087   Device "GD32F405RG" selected.
T83F4 000:098.416 - 1.346ms returns 0x00
T83F4 000:098.437 JLINK_GetHardwareVersion()
T83F4 000:098.448 - 0.016ms returns 97000
T83F4 000:098.467 JLINK_GetDLLVersion()
T83F4 000:098.478 - 0.016ms returns 68600
T83F4 000:098.490 JLINK_GetOEMString(...)
T83F4 000:098.502 JLINK_GetFirmwareString(...)
T83F4 000:098.513 - 0.016ms
T83F4 000:101.173 JLINK_GetDLLVersion()
T83F4 000:101.192 - 0.024ms returns 68600
T83F4 000:101.204 JLINK_GetCompileDateTime()
T83F4 000:101.216 - 0.017ms
T83F4 000:103.499 JLINK_GetFirmwareString(...)
T83F4 000:103.520 - 0.026ms
T83F4 000:104.904 JLINK_GetHardwareVersion()
T83F4 000:104.922 - 0.023ms returns 97000
T83F4 000:106.249 JLINK_GetSN()
T83F4 000:106.267 - 0.023ms returns 20723293
T83F4 000:107.553 JLINK_GetOEMString(...)
T83F4 000:110.184 JLINK_TIF_Select(JLINKARM_TIF_SWD)
T83F4 000:111.871 - 1.699ms returns 0x00
T83F4 000:111.892 JLINK_HasError()
T83F4 000:111.916 JLINK_SetSpeed(10000)
T83F4 000:112.285 - 0.377ms
T83F4 000:112.302 JLINK_GetId()
T83F4 000:115.126   Found SW-DP with ID 0x2BA01477
T83F4 000:121.014   DPIDR: 0x2BA01477
T83F4 000:122.338   Scanning AP map to find all available APs
T83F4 000:124.941   AP[1]: Stopped AP scan as end of AP map has been reached
T83F4 000:126.406   AP[0]: AHB-AP (IDR: 0x24770011)
T83F4 000:127.699   Iterating through AP map to find AHB-AP to use
T83F4 000:130.474   AP[0]: Core found
T83F4 000:132.224   AP[0]: AHB-AP ROM base: 0xE00FF000
T83F4 000:134.514   CPUID register: 0x410FC241. Implementer code: 0x41 (ARM)
T83F4 000:136.010   Found Cortex-M4 r0p1, Little endian.
T83F4 000:238.341   -- Max. mem block: 0x00010C40
T83F4 000:238.534   CPU_ReadMem(4 bytes @ 0xE000EDF0)
T83F4 000:239.918   CPU_WriteMem(4 bytes @ 0xE000EDF0)
T83F4 000:240.523   CPU_ReadMem(4 bytes @ 0xE0002000)
T83F4 000:249.613   FPUnit: 6 code (BP) slots and 2 literal slots
T83F4 000:249.694   CPU_ReadMem(4 bytes @ 0xE000EDFC)
T83F4 000:250.199   CPU_WriteMem(4 bytes @ 0xE000EDFC)
T83F4 000:250.884   CPU_ReadMem(4 bytes @ 0xE0001000)
T83F4 000:251.450   CPU_WriteMem(4 bytes @ 0xE0001000)
T83F4 000:252.064   CPU_ReadMem(4 bytes @ 0xE000ED88)
T83F4 000:252.697   CPU_WriteMem(4 bytes @ 0xE000ED88)
T83F4 000:253.300   CPU_ReadMem(4 bytes @ 0xE000ED88)
T83F4 000:253.937   CPU_WriteMem(4 bytes @ 0xE000ED88)
T83F4 000:258.599   CoreSight components:
T83F4 000:260.406   ROMTbl[0] @ E00FF000
T83F4 000:260.440   CPU_ReadMem(64 bytes @ 0xE00FF000)
T83F4 000:261.303   CPU_ReadMem(32 bytes @ 0xE000EFE0)
T83F4 000:263.421   ROMTbl[0][0]: E000E000, CID: B105E00D, PID: 000BB00C SCS-M7
T83F4 000:263.481   CPU_ReadMem(32 bytes @ 0xE0001FE0)
T83F4 000:265.662   ROMTbl[0][1]: E0001000, CID: B105E00D, PID: 003BB002 DWT
T83F4 000:265.686   CPU_ReadMem(32 bytes @ 0xE0002FE0)
T83F4 000:268.000   ROMTbl[0][2]: E0002000, CID: B105E00D, PID: 002BB003 FPB
T83F4 000:268.024   CPU_ReadMem(32 bytes @ 0xE0000FE0)
T83F4 000:270.175   ROMTbl[0][3]: E0000000, CID: B105E00D, PID: 003BB001 ITM
T83F4 000:270.200   CPU_ReadMem(32 bytes @ 0xE0040FE0)
T83F4 000:272.491   ROMTbl[0][4]: E0040000, CID: B105900D, PID: 000BB9A1 TPIU
T83F4 000:272.523   CPU_ReadMem(32 bytes @ 0xE0041FE0)
T83F4 000:277.773   ROMTbl[0][5]: E0041000, CID: 00000000, PID: 00000000 ???
T83F4 000:278.396 - 166.115ms returns 0x2BA01477
T83F4 000:278.436 JLINK_GetDLLVersion()
T83F4 000:278.452 - 0.023ms returns 68600
T83F4 000:278.470 JLINK_CORE_GetFound()
T83F4 000:278.485 - 0.022ms returns 0xE0000FF
T83F4 000:278.502 JLINK_GetDebugInfo(0x100 = JLINKARM_ROM_TABLE_ADDR_INDEX)
T83F4 000:278.519   Value=0xE00FF000
T83F4 000:278.541 - 0.045ms returns 0
T83F4 000:280.941 JLINK_GetDebugInfo(0x100 = JLINKARM_ROM_TABLE_ADDR_INDEX)
T83F4 000:280.962   Value=0xE00FF000
T83F4 000:280.980 - 0.045ms returns 0
T83F4 000:280.992 JLINK_GetDebugInfo(0x101 = JLINKARM_DEBUG_INFO_ETM_ADDR_INDEX)
T83F4 000:281.004   Value=0x00000000
T83F4 000:281.021 - 0.034ms returns 0
T83F4 000:281.042 JLINK_ReadMemEx(0xE0041FF0, 0x10 Bytes, Flags = 0x02000004)
T83F4 000:281.077   CPU_ReadMem(16 bytes @ 0xE0041FF0)
T83F4 000:281.736   Data:  00 00 00 00 00 00 00 00 00 00 00 00 00 00 00 00
T83F4 000:281.761 - 0.725ms returns 16 (0x10)
T83F4 000:281.776 JLINK_GetDebugInfo(0x102 = JLINKARM_DEBUG_INFO_MTB_ADDR_INDEX)
T83F4 000:281.790   Value=0x00000000
T83F4 000:281.809 - 0.039ms returns 0
T83F4 000:281.823 JLINK_GetDebugInfo(0x103 = JLINKARM_DEBUG_INFO_TPIU_ADDR_INDEX)
T83F4 000:281.837   Value=0xE0040000
T83F4 000:281.859 - 0.041ms returns 0
T83F4 000:281.871 JLINK_GetDebugInfo(0x104 = JLINKARM_DEBUG_INFO_ITM_ADDR_INDEX)
T83F4 000:281.882   Value=0xE0000000
T83F4 000:281.897 - 0.031ms returns 0
T83F4 000:281.909 JLINK_GetDebugInfo(0x105 = JLINKARM_DEBUG_INFO_DWT_ADDR_INDEX)
T83F4 000:281.920   Value=0xE0001000
T83F4 000:281.936 - 0.032ms returns 0
T83F4 000:281.948 JLINK_GetDebugInfo(0x106 = JLINKARM_DEBUG_INFO_FPB_ADDR_INDEX)
T83F4 000:281.959   Value=0xE0002000
T83F4 000:281.974 - 0.031ms returns 0
T83F4 000:281.986 JLINK_GetDebugInfo(0x107 = JLINKARM_DEBUG_INFO_NVIC_ADDR_INDEX)
T83F4 000:281.997   Value=0xE000E000
T83F4 000:282.012 - 0.031ms returns 0
T83F4 000:282.024 JLINK_GetDebugInfo(0x10C = JLINKARM_DEBUG_INFO_DBG_ADDR_INDEX)
T83F4 000:282.034   Value=0xE000EDF0
T83F4 000:282.050 - 0.031ms returns 0
T83F4 000:282.062 JLINK_GetDebugInfo(0x01 = Unknown)
T83F4 000:282.073   Value=0x00000001
T83F4 000:282.088 - 0.031ms returns 0
T83F4 000:282.100 JLINK_ReadMemU32(0xE000ED00, 0x1 Items)
T83F4 000:282.114   CPU_ReadMem(4 bytes @ 0xE000ED00)
T83F4 000:282.709   Data:  41 C2 0F 41
T83F4 000:282.773   Debug reg: CPUID
T83F4 000:282.800 - 0.705ms returns 1 (0x1)
T83F4 000:282.814 JLINK_GetDebugInfo(0x10F = JLINKARM_DEBUG_INFO_HAS_CORTEX_M_SECURITY_EXT_INDEX)
T83F4 000:282.826   Value=0x00000000
T83F4 000:282.842 - 0.032ms returns 0
T83F4 000:282.854 JLINK_HasError()
T83F4 000:282.866 JLINK_SetResetType(JLINKARM_CM3_RESET_TYPE_NORMAL)
T83F4 000:282.877 - 0.016ms returns JLINKARM_CM3_RESET_TYPE_NORMAL
T83F4 000:282.889 JLINK_Reset()
T83F4 000:282.922   CPU is running
T83F4 000:282.940   CPU_WriteMem(4 bytes @ 0xE000EDF0)
T83F4 000:283.522   CPU is running
T83F4 000:283.539   CPU_WriteMem(4 bytes @ 0xE000EDFC)
T83F4 000:285.644   Reset: Halt core after reset via DEMCR.VC_CORERESET.
T83F4 000:288.147   Reset: Reset device via AIRCR.SYSRESETREQ.
T83F4 000:288.171   CPU is running
T83F4 000:288.189   CPU_WriteMem(4 bytes @ 0xE000ED0C)
T83F4 000:342.263   CPU_ReadMem(4 bytes @ 0xE000EDF0)
T83F4 000:342.932   CPU_ReadMem(4 bytes @ 0xE000EDF0)
T83F4 000:343.550   CPU is running
T83F4 000:343.653   CPU_WriteMem(4 bytes @ 0xE000EDF0)
T83F4 000:344.398   CPU is running
T83F4 000:344.484   CPU_WriteMem(4 bytes @ 0xE000EDFC)
T83F4 000:350.984   CPU_ReadMem(4 bytes @ 0xE000EDF0)
T83F4 000:354.358   CPU_WriteMem(4 bytes @ 0xE0002000)
T83F4 000:355.158   CPU_ReadMem(4 bytes @ 0xE000EDFC)
T83F4 000:355.974   CPU_ReadMem(4 bytes @ 0xE0001000)
T83F4 000:356.559 - 73.677ms
T83F4 000:356.579 JLINK_Halt()
T83F4 000:356.590 - 0.016ms returns 0x00
T83F4 000:356.603 JLINK_ReadMemU32(0xE000EDF0, 0x1 Items)
T83F4 000:356.619   CPU_ReadMem(4 bytes @ 0xE000EDF0)
T83F4 000:357.159   Data:  03 00 03 00
T83F4 000:357.184   Debug reg: DHCSR
T83F4 000:357.200 - 0.602ms returns 1 (0x1)
T83F4 000:357.242 JLINK_WriteU32_64(0xE000EDF0, 0xA05F0003)
T83F4 000:357.258   Debug reg: DHCSR
T83F4 000:357.289   CPU_WriteMem(4 bytes @ 0xE000EDF0)
T83F4 000:357.789 - 0.568ms returns 0 (0x00000000)
T83F4 000:357.818 JLINK_WriteU32_64(0xE000EDFC, 0x01000000)
T83F4 000:357.829   Debug reg: DEMCR
T83F4 000:357.846   CPU_WriteMem(4 bytes @ 0xE000EDFC)
T83F4 000:358.419 - 0.620ms returns 0 (0x00000000)
T83F4 000:364.357 JLINK_GetHWStatus(...)
T83F4 000:364.784 - 0.434ms returns 0
T83F4 000:369.165 JLINK_GetNumBPUnits(Type = 0xFFFFFF00)
T83F4 000:369.191 - 0.031ms returns 0x06
T83F4 000:369.204 JLINK_GetNumBPUnits(Type = 0xF0)
T83F4 000:369.215 - 0.016ms returns 0x2000
T83F4 000:369.227 JLINK_GetNumWPUnits()
T83F4 000:369.237 - 0.016ms returns 4
T83F4 000:373.794 JLINK_GetSpeed()
T83F4 000:373.817 - 0.028ms returns 6000
T83F4 000:376.490 JLINK_ReadMemU32(0xE000E004, 0x1 Items)
T83F4 000:376.531   CPU_ReadMem(4 bytes @ 0xE000E004)
T83F4 000:377.039   Data:  02 00 00 00
T83F4 000:377.063 - 0.578ms returns 1 (0x1)
T83F4 000:377.078 JLINK_ReadMemU32(0xE000E004, 0x1 Items)
T83F4 000:377.094   CPU_ReadMem(4 bytes @ 0xE000E004)
T83F4 000:377.695   Data:  02 00 00 00
T83F4 000:377.719 - 0.646ms returns 1 (0x1)
T83F4 000:377.733 JLINK_WriteMemEx(0xE0001000, 0x0000001C Bytes, Flags = 0x02000004)
T83F4 000:377.745   Data:  01 00 00 00 00 00 00 00 00 00 00 00 00 00 00 00 ...
T83F4 000:377.971   CPU_WriteMem(28 bytes @ 0xE0001000)
T83F4 000:378.552 - 0.839ms returns 0x1C
T83F4 000:378.583 JLINK_Halt()
T83F4 000:378.594 - 0.016ms returns 0x00
T83F4 000:378.606 JLINK_IsHalted()
T83F4 000:378.618 - 0.017ms returns TRUE
T83F4 000:380.523 JLINK_WriteMem(0x20000000, 0x34C Bytes, ...)
T83F4 000:380.538   Data:  00 BE 0A E0 0D 78 2D 06 68 40 08 24 40 00 00 D3 ...
T83F4 000:380.740   CPU_WriteMem(844 bytes @ 0x20000000)
T83F4 000:384.023 - 3.512ms returns 0x34C
T83F4 000:384.067 JLINK_HasError()
T83F4 000:384.081 JLINK_WriteReg(R0, 0x08020000)
T83F4 000:384.094 - 0.019ms returns 0
T83F4 000:384.106 JLINK_WriteReg(R1, 0x017D7840)
T83F4 000:384.117 - 0.016ms returns 0
T83F4 000:384.129 JLINK_WriteReg(R2, 0x00000001)
T83F4 000:384.140 - 0.016ms returns 0
T83F4 000:384.152 JLINK_WriteReg(R3, 0x00000000)
T83F4 000:384.163 - 0.016ms returns 0
T83F4 000:384.174 JLINK_WriteReg(R4, 0x00000000)
T83F4 000:384.185 - 0.016ms returns 0
T83F4 000:384.197 JLINK_WriteReg(R5, 0x00000000)
T83F4 000:384.208 - 0.016ms returns 0
T83F4 000:384.219 JLINK_WriteReg(R6, 0x00000000)
T83F4 000:384.230 - 0.016ms returns 0
T83F4 000:384.242 JLINK_WriteReg(R7, 0x00000000)
T83F4 000:384.253 - 0.016ms returns 0
T83F4 000:384.265 JLINK_WriteReg(R8, 0x00000000)
T83F4 000:384.286 - 0.027ms returns 0
T83F4 000:384.298 JLINK_WriteReg(R9, 0x20000348)
T83F4 000:384.309 - 0.016ms returns 0
T83F4 000:384.321 JLINK_WriteReg(R10, 0x00000000)
T83F4 000:384.332 - 0.016ms returns 0
T83F4 000:384.343 JLINK_WriteReg(R11, 0x00000000)
T83F4 000:384.354 - 0.016ms returns 0
T83F4 000:384.366 JLINK_WriteReg(R12, 0x00000000)
T83F4 000:384.377 - 0.016ms returns 0
T83F4 000:384.388 JLINK_WriteReg(R13 (SP), 0x20001000)
T83F4 000:384.400 - 0.017ms returns 0
T83F4 000:384.412 JLINK_WriteReg(R14, 0x20000001)
T83F4 000:384.423 - 0.016ms returns 0
T83F4 000:384.434 JLINK_WriteReg(R15 (PC), 0x200000B0)
T83F4 000:384.449 - 0.019ms returns 0
T83F4 000:384.461 JLINK_WriteReg(XPSR, 0x01000000)
T83F4 000:384.473 - 0.017ms returns 0
T83F4 000:384.485 JLINK_WriteReg(MSP, 0x20001000)
T83F4 000:384.496 - 0.016ms returns 0
T83F4 000:384.507 JLINK_WriteReg(PSP, 0x20001000)
T83F4 000:384.518 - 0.016ms returns 0
T83F4 000:384.530 JLINK_WriteReg(CFBP, 0x00000000)
T83F4 000:384.541 - 0.016ms returns 0
T83F4 000:384.553 JLINK_SetBPEx(Addr = 0x20000000, Type = 0xFFFFFFF2)
T83F4 000:384.568   CPU_ReadMem(2 bytes @ 0x20000000)
T83F4 000:385.118 - 0.576ms returns 0x00000001
T83F4 000:385.137 JLINK_Go()
T83F4 000:385.151   CPU_WriteMem(2 bytes @ 0x20000000)
T83F4 000:385.799   CPU_ReadMem(4 bytes @ 0xE0001000)
T83F4 000:386.438   CPU_WriteMem(4 bytes @ 0xE0002008)
T83F4 000:386.455   CPU_WriteMem(4 bytes @ 0xE000200C)
T83F4 000:386.472   CPU_WriteMem(4 bytes @ 0xE0002010)
T83F4 000:386.488   CPU_WriteMem(4 bytes @ 0xE0002014)
T83F4 000:386.504   CPU_WriteMem(4 bytes @ 0xE0002018)
T83F4 000:386.520   CPU_WriteMem(4 bytes @ 0xE000201C)
T83F4 000:387.801   CPU_WriteMem(4 bytes @ 0xE0001004)
T83F4 000:390.885 - 5.756ms
T83F4 000:390.902 JLINK_IsHalted()
T83F4 000:393.491   CPU_ReadMem(2 bytes @ 0x20000000)
T83F4 000:394.013 - 3.118ms returns TRUE
T83F4 000:394.029 JLINK_ReadReg(R15 (PC))
T83F4 000:394.042 - 0.018ms returns 0x20000000
T83F4 000:394.054 JLINK_ClrBPEx(BPHandle = 0x00000001)
T83F4 000:394.065 - 0.016ms returns 0x00
T83F4 000:394.077 JLINK_ReadReg(R0)
T83F4 000:394.088 - 0.016ms returns 0x00000000
T83F4 000:394.337 JLINK_HasError()
T83F4 000:394.351 JLINK_WriteReg(R0, 0x08020000)
T83F4 000:394.363 - 0.017ms returns 0
T83F4 000:394.375 JLINK_WriteReg(R1, 0x00004000)
T83F4 000:394.386 - 0.016ms returns 0
T83F4 000:394.397 JLINK_WriteReg(R2, 0x000000FF)
T83F4 000:394.408 - 0.016ms returns 0
T83F4 000:394.420 JLINK_WriteReg(R3, 0x00000000)
T83F4 000:394.431 - 0.016ms returns 0
T83F4 000:394.443 JLINK_WriteReg(R4, 0x00000000)
T83F4 000:394.454 - 0.016ms returns 0
T83F4 000:394.465 JLINK_WriteReg(R5, 0x00000000)
T83F4 000:394.476 - 0.016ms returns 0
T83F4 000:394.488 JLINK_WriteReg(R6, 0x00000000)
T83F4 000:394.499 - 0.016ms returns 0
T83F4 000:394.510 JLINK_WriteReg(R7, 0x00000000)
T83F4 000:394.521 - 0.016ms returns 0
T83F4 000:394.533 JLINK_WriteReg(R8, 0x00000000)
T83F4 000:394.544 - 0.016ms returns 0
T83F4 000:394.556 JLINK_WriteReg(R9, 0x20000348)
T83F4 000:394.567 - 0.016ms returns 0
T83F4 000:394.578 JLINK_WriteReg(R10, 0x00000000)
T83F4 000:394.589 - 0.016ms returns 0
T83F4 000:394.601 JLINK_WriteReg(R11, 0x00000000)
T83F4 000:394.612 - 0.016ms returns 0
T83F4 000:394.624 JLINK_WriteReg(R12, 0x00000000)
T83F4 000:394.635 - 0.016ms returns 0
T83F4 000:394.646 JLINK_WriteReg(R13 (SP), 0x20001000)
T83F4 000:394.658 - 0.016ms returns 0
T83F4 000:394.669 JLINK_WriteReg(R14, 0x20000001)
T83F4 000:394.680 - 0.016ms returns 0
T83F4 000:394.692 JLINK_WriteReg(R15 (PC), 0x20000020)
T83F4 000:394.703 - 0.016ms returns 0
T83F4 000:394.715 JLINK_WriteReg(XPSR, 0x01000000)
T83F4 000:394.726 - 0.016ms returns 0
T83F4 000:394.737 JLINK_WriteReg(MSP, 0x20001000)
T83F4 000:394.748 - 0.016ms returns 0
T83F4 000:394.760 JLINK_WriteReg(PSP, 0x20001000)
T83F4 000:394.771 - 0.016ms returns 0
T83F4 000:394.783 JLINK_WriteReg(CFBP, 0x00000000)
T83F4 000:394.794 - 0.016ms returns 0
T83F4 000:394.806 JLINK_SetBPEx(Addr = 0x20000000, Type = 0xFFFFFFF2)
T83F4 000:394.818 - 0.018ms returns 0x00000002
T83F4 000:394.830 JLINK_Go()
T83F4 000:394.845   CPU_ReadMem(4 bytes @ 0xE0001000)
T83F4 000:398.118 - 3.297ms
T83F4 000:398.136 JLINK_IsHalted()
T83F4 000:400.431   CPU_ReadMem(2 bytes @ 0x20000000)
T83F4 000:401.010 - 2.889ms returns TRUE
T83F4 000:401.035 JLINK_ReadReg(R15 (PC))
T83F4 000:401.051 - 0.021ms returns 0x20000000
T83F4 000:401.064 JLINK_ClrBPEx(BPHandle = 0x00000002)
T83F4 000:401.077 - 0.018ms returns 0x00
T83F4 000:401.090 JLINK_ReadReg(R0)
T83F4 000:401.102 - 0.018ms returns 0x00000001
T83F4 000:401.116 JLINK_HasError()
T83F4 000:401.129 JLINK_WriteReg(R0, 0x08020000)
T83F4 000:401.142 - 0.058ms returns 0
T83F4 000:401.197 JLINK_WriteReg(R1, 0x00004000)
T83F4 000:401.210 - 0.018ms returns 0
T83F4 000:401.223 JLINK_WriteReg(R2, 0x000000FF)
T83F4 000:401.235 - 0.018ms returns 0
T83F4 000:401.248 JLINK_WriteReg(R3, 0x00000000)
T83F4 000:401.260 - 0.018ms returns 0
T83F4 000:401.273 JLINK_WriteReg(R4, 0x00000000)
T83F4 000:401.286 - 0.018ms returns 0
T83F4 000:401.299 JLINK_WriteReg(R5, 0x00000000)
T83F4 000:401.311 - 0.018ms returns 0
T83F4 000:401.324 JLINK_WriteReg(R6, 0x00000000)
T83F4 000:401.336 - 0.018ms returns 0
T83F4 000:401.349 JLINK_WriteReg(R7, 0x00000000)
T83F4 000:401.362 - 0.018ms returns 0
T83F4 000:401.375 JLINK_WriteReg(R8, 0x00000000)
T83F4 000:401.387 - 0.018ms returns 0
T83F4 000:401.400 JLINK_WriteReg(R9, 0x20000348)
T83F4 000:401.412 - 0.018ms returns 0
T83F4 000:401.425 JLINK_WriteReg(R10, 0x00000000)
T83F4 000:401.438 - 0.018ms returns 0
T83F4 000:401.451 JLINK_WriteReg(R11, 0x00000000)
T83F4 000:401.464 - 0.018ms returns 0
T83F4 000:401.477 JLINK_WriteReg(R12, 0x00000000)
T83F4 000:401.489 - 0.018ms returns 0
T83F4 000:401.502 JLINK_WriteReg(R13 (SP), 0x20001000)
T83F4 000:401.515 - 0.018ms returns 0
T83F4 000:401.528 JLINK_WriteReg(R14, 0x20000001)
T83F4 000:401.540 - 0.018ms returns 0
T83F4 000:401.554 JLINK_WriteReg(R15 (PC), 0x200001C4)
T83F4 000:401.566 - 0.018ms returns 0
T83F4 000:401.579 JLINK_WriteReg(XPSR, 0x01000000)
T83F4 000:401.592 - 0.018ms returns 0
T83F4 000:401.605 JLINK_WriteReg(MSP, 0x20001000)
T83F4 000:401.617 - 0.018ms returns 0
T83F4 000:401.631 JLINK_WriteReg(PSP, 0x20001000)
T83F4 000:401.643 - 0.018ms returns 0
T83F4 000:401.656 JLINK_WriteReg(CFBP, 0x00000000)
T83F4 000:401.669 - 0.018ms returns 0
T83F4 000:401.682 JLINK_SetBPEx(Addr = 0x20000000, Type = 0xFFFFFFF2)
T83F4 000:401.695 - 0.019ms returns 0x00000003
T83F4 000:401.708 JLINK_Go()
T83F4 000:401.726   CPU_ReadMem(4 bytes @ 0xE0001000)
T83F4 000:404.936 - 3.242ms
T83F4 000:404.960 JLINK_IsHalted()
T83F4 000:405.660 - 0.709ms returns FALSE
T83F4 000:405.679 JLINK_HasError()
T83F4 000:414.779 JLINK_IsHalted()
T83F4 000:415.362 - 0.589ms returns FALSE
T83F4 000:415.376 JLINK_HasError()
T83F4 000:416.737 JLINK_IsHalted()
T83F4 000:417.346 - 0.640ms returns FALSE
T83F4 000:417.386 JLINK_HasError()
T83F4 000:418.749 JLINK_IsHalted()
T83F4 000:419.491 - 0.749ms returns FALSE
T83F4 000:419.507 JLINK_HasError()
T83F4 000:420.748 JLINK_IsHalted()
T83F4 000:421.434 - 0.694ms returns FALSE
T83F4 000:421.452 JLINK_HasError()
T83F4 000:422.731 JLINK_IsHalted()
T83F4 000:423.263 - 0.541ms returns FALSE
T83F4 000:423.284 JLINK_HasError()
T83F4 000:424.713 JLINK_IsHalted()
T83F4 000:425.447 - 0.749ms returns FALSE
T83F4 000:425.476 JLINK_HasError()
T83F4 000:426.739 JLINK_IsHalted()
T83F4 000:427.447 - 0.734ms returns FALSE
T83F4 000:427.484 JLINK_HasError()
T83F4 000:428.715 JLINK_IsHalted()
T83F4 000:429.338 - 0.642ms returns FALSE
T83F4 000:429.372 JLINK_HasError()
T83F4 000:431.706 JLINK_IsHalted()
T83F4 000:432.301 - 0.607ms returns FALSE
T83F4 000:432.328 JLINK_HasError()
T83F4 000:433.697 JLINK_IsHalted()
T83F4 000:434.270 - 0.586ms returns FALSE
T83F4 000:434.298 JLINK_HasError()
T83F4 000:435.690 JLINK_IsHalted()
T83F4 000:436.418 - 0.741ms returns FALSE
T83F4 000:436.450 JLINK_HasError()
T83F4 000:437.689 JLINK_IsHalted()
T83F4 000:438.372 - 0.714ms returns FALSE
T83F4 000:438.421 JLINK_HasError()
T83F4 000:439.678 JLINK_IsHalted()
T83F4 000:440.194 - 0.531ms returns FALSE
T83F4 000:440.228 JLINK_HasError()
T83F4 000:441.659 JLINK_IsHalted()
T83F4 000:442.198 - 0.557ms returns FALSE
T83F4 000:442.238 JLINK_HasError()
T83F4 000:443.671 JLINK_IsHalted()
T83F4 000:444.310 - 0.681ms returns FALSE
T83F4 000:444.389 JLINK_HasError()
T83F4 000:445.653 JLINK_IsHalted()
T83F4 000:446.255 - 0.632ms returns FALSE
T83F4 000:446.311 JLINK_HasError()
T83F4 000:449.647 JLINK_IsHalted()
T83F4 000:450.376 - 0.761ms returns FALSE
T83F4 000:450.428 JLINK_HasError()
T83F4 000:451.639 JLINK_IsHalted()
T83F4 000:452.338 - 0.718ms returns FALSE
T83F4 000:452.380 JLINK_HasError()
T83F4 000:453.626 JLINK_IsHalted()
T83F4 000:454.197 - 0.588ms returns FALSE
T83F4 000:454.233 JLINK_HasError()
T83F4 000:455.609 JLINK_IsHalted()
T83F4 000:456.135 - 0.544ms returns FALSE
T83F4 000:456.174 JLINK_HasError()
T83F4 000:457.613 JLINK_IsHalted()
T83F4 000:458.318 - 0.724ms returns FALSE
T83F4 000:458.360 JLINK_HasError()
T83F4 000:459.621 JLINK_IsHalted()
T83F4 000:460.202 - 0.614ms returns FALSE
T83F4 000:460.261 JLINK_HasError()
T83F4 000:461.609 JLINK_IsHalted()
T83F4 000:462.378 - 0.809ms returns FALSE
T83F4 000:462.462 JLINK_HasError()
T83F4 000:464.581 JLINK_IsHalted()
T83F4 000:465.129 - 0.564ms returns FALSE
T83F4 000:465.163 JLINK_HasError()
T83F4 000:466.571 JLINK_IsHalted()
T83F4 000:467.322 - 0.774ms returns FALSE
T83F4 000:467.365 JLINK_HasError()
T83F4 000:468.588 JLINK_IsHalted()
T83F4 000:469.175 - 0.606ms returns FALSE
T83F4 000:469.216 JLINK_HasError()
T83F4 000:470.576 JLINK_IsHalted()
T83F4 000:471.143 - 0.590ms returns FALSE
T83F4 000:471.192 JLINK_HasError()
T83F4 000:472.566 JLINK_IsHalted()
T83F4 000:473.326 - 0.808ms returns FALSE
T83F4 000:473.409 JLINK_HasError()
T83F4 000:475.556 JLINK_IsHalted()
T83F4 000:476.311 - 0.800ms returns FALSE
T83F4 000:476.396 JLINK_HasError()
T83F4 000:478.545 JLINK_IsHalted()
T83F4 000:479.324 - 0.810ms returns FALSE
T83F4 000:479.382 JLINK_HasError()
T83F4 000:480.554 JLINK_IsHalted()
T83F4 000:481.209 - 0.683ms returns FALSE
T83F4 000:481.268 JLINK_HasError()
T83F4 000:482.529 JLINK_IsHalted()
T83F4 000:483.202 - 0.733ms returns FALSE
T83F4 000:483.309 JLINK_HasError()
T83F4 000:484.527 JLINK_IsHalted()
T83F4 000:485.153 - 0.657ms returns FALSE
T83F4 000:485.210 JLINK_HasError()
T83F4 000:486.528 JLINK_IsHalted()
T83F4 000:487.213 - 0.712ms returns FALSE
T83F4 000:487.268 JLINK_HasError()
T83F4 000:488.509 JLINK_IsHalted()
T83F4 000:489.137 - 0.652ms returns FALSE
T83F4 000:489.193 JLINK_HasError()
T83F4 000:490.503 JLINK_IsHalted()
T83F4 000:491.067 - 0.612ms returns FALSE
T83F4 000:491.151 JLINK_HasError()
T83F4 000:492.528 JLINK_IsHalted()
T83F4 000:493.216 - 0.719ms returns FALSE
T83F4 000:493.280 JLINK_HasError()
T83F4 000:494.498 JLINK_IsHalted()
T83F4 000:495.133 - 0.663ms returns FALSE
T83F4 000:495.194 JLINK_HasError()
T83F4 000:496.487 JLINK_IsHalted()
T83F4 000:497.036 - 0.577ms returns FALSE
T83F4 000:497.099 JLINK_HasError()
T83F4 000:498.493 JLINK_IsHalted()
T83F4 000:499.214 - 0.752ms returns FALSE
T83F4 000:499.279 JLINK_HasError()
T83F4 000:500.468 JLINK_IsHalted()
T83F4 000:501.171 - 0.733ms returns FALSE
T83F4 000:501.236 JLINK_HasError()
T83F4 000:502.472 JLINK_IsHalted()
T83F4 000:503.037 - 0.595ms returns FALSE
T83F4 000:503.105 JLINK_HasError()
T83F4 000:504.480 JLINK_IsHalted()
T83F4 000:505.222 - 0.778ms returns FALSE
T83F4 000:505.296 JLINK_HasError()
T83F4 000:507.455 JLINK_IsHalted()
T83F4 000:508.269 - 0.858ms returns FALSE
T83F4 000:508.349 JLINK_HasError()
T83F4 000:510.449 JLINK_IsHalted()
T83F4 000:511.211 - 0.793ms returns FALSE
T83F4 000:511.277 JLINK_HasError()
T83F4 000:513.428 JLINK_IsHalted()
T83F4 000:514.032 - 0.635ms returns FALSE
T83F4 000:514.105 JLINK_HasError()
T83F4 000:515.423 JLINK_IsHalted()
T83F4 000:516.130 - 0.738ms returns FALSE
T83F4 000:516.197 JLINK_HasError()
T83F4 000:517.419 JLINK_IsHalted()
T83F4 000:518.142 - 0.762ms returns FALSE
T83F4 000:518.218 JLINK_HasError()
T83F4 000:519.408 JLINK_IsHalted()
T83F4 000:520.006 - 0.635ms returns FALSE
T83F4 000:520.080 JLINK_HasError()
T83F4 000:521.403 JLINK_IsHalted()
T83F4 000:522.169 - 0.811ms returns FALSE
T83F4 000:522.254 JLINK_HasError()
T83F4 000:527.390 JLINK_IsHalted()
T83F4 000:528.005 - 0.641ms returns FALSE
T83F4 000:528.064 JLINK_HasError()
T83F4 000:529.379 JLINK_IsHalted()
T83F4 000:530.129 - 0.778ms returns FALSE
T83F4 000:530.189 JLINK_HasError()
T83F4 000:531.377 JLINK_IsHalted()
T83F4 000:532.155 - 0.808ms returns FALSE
T83F4 000:532.217 JLINK_HasError()
T83F4 000:534.374 JLINK_IsHalted()
T83F4 000:535.128 - 0.785ms returns FALSE
T83F4 000:535.195 JLINK_HasError()
T83F4 000:537.356 JLINK_IsHalted()
T83F4 000:538.179 - 0.861ms returns FALSE
T83F4 000:538.254 JLINK_HasError()
T83F4 000:540.352 JLINK_IsHalted()
T83F4 000:541.154 - 0.847ms returns FALSE
T83F4 000:541.235 JLINK_HasError()
T83F4 000:543.333 JLINK_IsHalted()
T83F4 000:544.149 - 0.842ms returns FALSE
T83F4 000:544.206 JLINK_HasError()
T83F4 000:548.323 JLINK_IsHalted()
T83F4 000:549.154 - 0.859ms returns FALSE
T83F4 000:549.207 JLINK_HasError()
T83F4 000:551.306 JLINK_IsHalted()
T83F4 000:551.847 - 0.557ms returns FALSE
T83F4 000:551.882 JLINK_HasError()
T83F4 000:553.303 JLINK_IsHalted()
T83F4 000:556.087   CPU_ReadMem(2 bytes @ 0x20000000)
T83F4 000:556.839 - 3.575ms returns TRUE
T83F4 000:556.918 JLINK_ReadReg(R15 (PC))
T83F4 000:556.985 - 0.094ms returns 0x20000000
T83F4 000:557.046 JLINK_ClrBPEx(BPHandle = 0x00000003)
T83F4 000:557.103 - 0.083ms returns 0x00
T83F4 000:557.163 JLINK_ReadReg(R0)
T83F4 000:557.218 - 0.082ms returns 0x00000000
T83F4 000:558.823 JLINK_HasError()
T83F4 000:558.888 JLINK_WriteReg(R0, 0x00000001)
T83F4 000:558.941 - 0.075ms returns 0
T83F4 000:558.990 JLINK_WriteReg(R1, 0x00004000)
T83F4 000:559.036 - 0.068ms returns 0
T83F4 000:559.085 JLINK_WriteReg(R2, 0x000000FF)
T83F4 000:559.129 - 0.066ms returns 0
T83F4 000:559.177 JLINK_WriteReg(R3, 0x00000000)
T83F4 000:559.221 - 0.066ms returns 0
T83F4 000:559.269 JLINK_WriteReg(R4, 0x00000000)
T83F4 000:559.314 - 0.066ms returns 0
T83F4 000:559.361 JLINK_WriteReg(R5, 0x00000000)
T83F4 000:559.406 - 0.066ms returns 0
T83F4 000:559.449 JLINK_WriteReg(R6, 0x00000000)
T83F4 000:559.487 - 0.056ms returns 0
T83F4 000:559.527 JLINK_WriteReg(R7, 0x00000000)
T83F4 000:559.565 - 0.057ms returns 0
T83F4 000:559.606 JLINK_WriteReg(R8, 0x00000000)
T83F4 000:559.643 - 0.056ms returns 0
T83F4 000:559.684 JLINK_WriteReg(R9, 0x20000348)
T83F4 000:559.721 - 0.055ms returns 0
T83F4 000:559.764 JLINK_WriteReg(R10, 0x00000000)
T83F4 000:559.800 - 0.053ms returns 0
T83F4 000:559.838 JLINK_WriteReg(R11, 0x00000000)
T83F4 000:559.876 - 0.057ms returns 0
T83F4 000:559.915 JLINK_WriteReg(R12, 0x00000000)
T83F4 000:559.952 - 0.055ms returns 0
T83F4 000:559.991 JLINK_WriteReg(R13 (SP), 0x20001000)
T83F4 000:560.028 - 0.056ms returns 0
T83F4 000:560.068 JLINK_WriteReg(R14, 0x20000001)
T83F4 000:560.104 - 0.055ms returns 0
T83F4 000:560.144 JLINK_WriteReg(R15 (PC), 0x20000144)
T83F4 000:560.180 - 0.053ms returns 0
T83F4 000:560.220 JLINK_WriteReg(XPSR, 0x01000000)
T83F4 000:560.257 - 0.054ms returns 0
T83F4 000:560.295 JLINK_WriteReg(MSP, 0x20001000)
T83F4 000:560.330 - 0.053ms returns 0
T83F4 000:560.369 JLINK_WriteReg(PSP, 0x20001000)
T83F4 000:560.406 - 0.055ms returns 0
T83F4 000:560.447 JLINK_WriteReg(CFBP, 0x00000000)
T83F4 000:560.479 - 0.046ms returns 0
T83F4 000:560.512 JLINK_SetBPEx(Addr = 0x20000000, Type = 0xFFFFFFF2)
T83F4 000:560.545 - 0.048ms returns 0x00000004
T83F4 000:560.578 JLINK_Go()
T83F4 000:560.623   CPU_ReadMem(4 bytes @ 0xE0001000)
T83F4 000:563.924 - 3.379ms
T83F4 000:563.980 JLINK_IsHalted()
T83F4 000:566.773   CPU_ReadMem(2 bytes @ 0x20000000)
T83F4 000:567.422 - 3.455ms returns TRUE
T83F4 000:567.455 JLINK_ReadReg(R15 (PC))
T83F4 000:567.482 - 0.038ms returns 0x20000000
T83F4 000:567.509 JLINK_ClrBPEx(BPHandle = 0x00000004)
T83F4 000:567.532 - 0.034ms returns 0x00
T83F4 000:567.558 JLINK_ReadReg(R0)
T83F4 000:567.581 - 0.033ms returns 0x00000000
T83F4 000:623.290 JLINK_WriteMem(0x20000000, 0x34C Bytes, ...)
T83F4 000:623.319   Data:  00 BE 0A E0 0D 78 2D 06 68 40 08 24 40 00 00 D3 ...
T83F4 000:623.355   CPU_WriteMem(844 bytes @ 0x20000000)
T83F4 000:626.682 - 3.428ms returns 0x34C
T83F4 000:626.755 JLINK_HasError()
T83F4 000:626.776 JLINK_WriteReg(R0, 0x08020000)
T83F4 000:626.796 - 0.028ms returns 0
T83F4 000:626.815 JLINK_WriteReg(R1, 0x017D7840)
T83F4 000:626.833 - 0.026ms returns 0
T83F4 000:626.852 JLINK_WriteReg(R2, 0x00000002)
T83F4 000:626.869 - 0.026ms returns 0
T83F4 000:626.891 JLINK_WriteReg(R3, 0x00000000)
T83F4 000:626.910 - 0.028ms returns 0
T83F4 000:626.929 JLINK_WriteReg(R4, 0x00000000)
T83F4 000:626.947 - 0.026ms returns 0
T83F4 000:626.966 JLINK_WriteReg(R5, 0x00000000)
T83F4 000:626.983 - 0.026ms returns 0
T83F4 000:627.002 JLINK_WriteReg(R6, 0x00000000)
T83F4 000:627.020 - 0.026ms returns 0
T83F4 000:627.039 JLINK_WriteReg(R7, 0x00000000)
T83F4 000:627.056 - 0.026ms returns 0
T83F4 000:627.075 JLINK_WriteReg(R8, 0x00000000)
T83F4 000:627.093 - 0.026ms returns 0
T83F4 000:627.112 JLINK_WriteReg(R9, 0x20000348)
T83F4 000:627.129 - 0.026ms returns 0
T83F4 000:627.148 JLINK_WriteReg(R10, 0x00000000)
T83F4 000:627.166 - 0.026ms returns 0
T83F4 000:627.185 JLINK_WriteReg(R11, 0x00000000)
T83F4 000:627.202 - 0.026ms returns 0
T83F4 000:627.221 JLINK_WriteReg(R12, 0x00000000)
T83F4 000:627.239 - 0.026ms returns 0
T83F4 000:627.258 JLINK_WriteReg(R13 (SP), 0x20001000)
T83F4 000:627.276 - 0.027ms returns 0
T83F4 000:627.295 JLINK_WriteReg(R14, 0x20000001)
T83F4 000:627.312 - 0.026ms returns 0
T83F4 000:627.331 JLINK_WriteReg(R15 (PC), 0x200000B0)
T83F4 000:627.349 - 0.026ms returns 0
T83F4 000:627.368 JLINK_WriteReg(XPSR, 0x01000000)
T83F4 000:627.385 - 0.026ms returns 0
T83F4 000:627.404 JLINK_WriteReg(MSP, 0x20001000)
T83F4 000:627.422 - 0.026ms returns 0
T83F4 000:627.441 JLINK_WriteReg(PSP, 0x20001000)
T83F4 000:627.458 - 0.026ms returns 0
T83F4 000:627.477 JLINK_WriteReg(CFBP, 0x00000000)
T83F4 000:627.494 - 0.026ms returns 0
T83F4 000:627.513 JLINK_SetBPEx(Addr = 0x20000000, Type = 0xFFFFFFF2)
T83F4 000:627.535   CPU_ReadMem(2 bytes @ 0x20000000)
T83F4 000:628.351 - 0.861ms returns 0x00000005
T83F4 000:628.396 JLINK_Go()
T83F4 000:628.417   CPU_WriteMem(2 bytes @ 0x20000000)
T83F4 000:629.180   CPU_ReadMem(4 bytes @ 0xE0001000)
T83F4 000:632.357 - 3.980ms
T83F4 000:632.393 JLINK_IsHalted()
T83F4 000:635.084   CPU_ReadMem(2 bytes @ 0x20000000)
T83F4 000:635.612 - 3.235ms returns TRUE
T83F4 000:635.650 JLINK_ReadReg(R15 (PC))
T83F4 000:635.684 - 0.048ms returns 0x20000000
T83F4 000:635.714 JLINK_ClrBPEx(BPHandle = 0x00000005)
T83F4 000:635.743 - 0.042ms returns 0x00
T83F4 000:635.773 JLINK_ReadReg(R0)
T83F4 000:635.801 - 0.041ms returns 0x00000000
T83F4 000:636.312 JLINK_WriteMem(0x2000034C, 0xB4 Bytes, ...)
T83F4 000:636.348   Data:  88 25 00 20 29 02 02 08 7D 06 02 08 75 06 02 08 ...
T83F4 000:636.400   CPU_WriteMem(180 bytes @ 0x2000034C)
T83F4 000:637.620 - 1.336ms returns 0xB4
T83F4 000:637.667 JLINK_WriteMem(0x20000400, 0x34C Bytes, ...)
T83F4 000:637.692   Data:  43 02 02 08 43 02 02 08 43 02 02 08 43 02 02 08 ...
T83F4 000:637.743   CPU_WriteMem(844 bytes @ 0x20000400)
T83F4 000:641.205 - 3.565ms returns 0x34C
T83F4 000:641.253 JLINK_HasError()
T83F4 000:641.282 JLINK_WriteReg(R0, 0x08020000)
T83F4 000:641.312 - 0.043ms returns 0
T83F4 000:641.339 JLINK_WriteReg(R1, 0x00000400)
T83F4 000:641.364 - 0.037ms returns 0
T83F4 000:641.390 JLINK_WriteReg(R2, 0x2000034C)
T83F4 000:641.415 - 0.036ms returns 0
T83F4 000:641.441 JLINK_WriteReg(R3, 0x00000000)
T83F4 000:641.466 - 0.036ms returns 0
T83F4 000:641.492 JLINK_WriteReg(R4, 0x00000000)
T83F4 000:641.516 - 0.036ms returns 0
T83F4 000:641.543 JLINK_WriteReg(R5, 0x00000000)
T83F4 000:641.567 - 0.036ms returns 0
T83F4 000:641.593 JLINK_WriteReg(R6, 0x00000000)
T83F4 000:641.618 - 0.036ms returns 0
T83F4 000:641.644 JLINK_WriteReg(R7, 0x00000000)
T83F4 000:641.669 - 0.036ms returns 0
T83F4 000:641.695 JLINK_WriteReg(R8, 0x00000000)
T83F4 000:641.720 - 0.036ms returns 0
T83F4 000:641.746 JLINK_WriteReg(R9, 0x20000348)
T83F4 000:641.770 - 0.036ms returns 0
T83F4 000:641.796 JLINK_WriteReg(R10, 0x00000000)
T83F4 000:641.821 - 0.037ms returns 0
T83F4 000:641.847 JLINK_WriteReg(R11, 0x00000000)
T83F4 000:641.872 - 0.036ms returns 0
T83F4 000:641.898 JLINK_WriteReg(R12, 0x00000000)
T83F4 000:641.922 - 0.036ms returns 0
T83F4 000:641.949 JLINK_WriteReg(R13 (SP), 0x20001000)
T83F4 000:641.977 - 0.039ms returns 0
T83F4 000:642.001 JLINK_WriteReg(R14, 0x20000001)
T83F4 000:642.087 - 0.097ms returns 0
T83F4 000:642.112 JLINK_WriteReg(R15 (PC), 0x20000274)
T83F4 000:642.136 - 0.035ms returns 0
T83F4 000:642.161 JLINK_WriteReg(XPSR, 0x01000000)
T83F4 000:642.184 - 0.034ms returns 0
T83F4 000:642.209 JLINK_WriteReg(MSP, 0x20001000)
T83F4 000:642.232 - 0.034ms returns 0
T83F4 000:642.257 JLINK_WriteReg(PSP, 0x20001000)
T83F4 000:642.280 - 0.035ms returns 0
T83F4 000:642.305 JLINK_WriteReg(CFBP, 0x00000000)
T83F4 000:642.329 - 0.035ms returns 0
T83F4 000:642.354 JLINK_SetBPEx(Addr = 0x20000000, Type = 0xFFFFFFF2)
T83F4 000:642.379 - 0.036ms returns 0x00000006
T83F4 000:642.404 JLINK_Go()
T83F4 000:642.437   CPU_ReadMem(4 bytes @ 0xE0001000)
T83F4 000:645.784 - 3.415ms
T83F4 000:645.846 JLINK_IsHalted()
T83F4 000:646.529 - 0.719ms returns FALSE
T83F4 000:646.592 JLINK_HasError()
T83F4 000:652.970 JLINK_IsHalted()
T83F4 000:653.760 - 0.824ms returns FALSE
T83F4 000:653.818 JLINK_HasError()
T83F4 000:654.956 JLINK_IsHalted()
T83F4 000:655.660 - 0.750ms returns FALSE
T83F4 000:655.734 JLINK_HasError()
T83F4 000:656.953 JLINK_IsHalted()
T83F4 000:657.555 - 0.621ms returns FALSE
T83F4 000:657.597 JLINK_HasError()
T83F4 000:658.951 JLINK_IsHalted()
T83F4 000:661.755   CPU_ReadMem(2 bytes @ 0x20000000)
T83F4 000:662.474 - 3.557ms returns TRUE
T83F4 000:662.537 JLINK_ReadReg(R15 (PC))
T83F4 000:662.607 - 0.091ms returns 0x20000000
T83F4 000:662.656 JLINK_ClrBPEx(BPHandle = 0x00000006)
T83F4 000:662.696 - 0.058ms returns 0x00
T83F4 000:662.737 JLINK_ReadReg(R0)
T83F4 000:662.775 - 0.057ms returns 0x00000000
T83F4 000:664.237 JLINK_WriteMem(0x2000034C, 0xB4 Bytes, ...)
T83F4 000:664.289   Data:  04 3D 40 F8 04 CD FF F7 F3 BF 12 1D 5C BF 51 F8 ...
T83F4 000:664.356   CPU_WriteMem(180 bytes @ 0x2000034C)
T83F4 000:665.903 - 1.691ms returns 0xB4
T83F4 000:665.951 JLINK_WriteMem(0x20000400, 0x34C Bytes, ...)
T83F4 000:665.986   Data:  70 47 D2 07 28 BF 31 F8 02 3B 48 BF 11 F8 01 2B ...
T83F4 000:666.043   CPU_WriteMem(844 bytes @ 0x20000400)
T83F4 000:669.527 - 3.606ms returns 0x34C
T83F4 000:669.580 JLINK_HasError()
T83F4 000:669.614 JLINK_WriteReg(R0, 0x08020400)
T83F4 000:669.649 - 0.049ms returns 0
T83F4 000:669.681 JLINK_WriteReg(R1, 0x00000400)
T83F4 000:669.711 - 0.044ms returns 0
T83F4 000:669.742 JLINK_WriteReg(R2, 0x2000034C)
T83F4 000:669.771 - 0.043ms returns 0
T83F4 000:669.802 JLINK_WriteReg(R3, 0x00000000)
T83F4 000:669.831 - 0.043ms returns 0
T83F4 000:669.862 JLINK_WriteReg(R4, 0x00000000)
T83F4 000:669.891 - 0.043ms returns 0
T83F4 000:669.924 JLINK_WriteReg(R5, 0x00000000)
T83F4 000:669.953 - 0.043ms returns 0
T83F4 000:669.984 JLINK_WriteReg(R6, 0x00000000)
T83F4 000:670.013 - 0.043ms returns 0
T83F4 000:670.044 JLINK_WriteReg(R7, 0x00000000)
T83F4 000:670.074 - 0.043ms returns 0
T83F4 000:670.104 JLINK_WriteReg(R8, 0x00000000)
T83F4 000:670.134 - 0.044ms returns 0
T83F4 000:670.163 JLINK_WriteReg(R9, 0x20000348)
T83F4 000:670.189 - 0.038ms returns 0
T83F4 000:670.217 JLINK_WriteReg(R10, 0x00000000)
T83F4 000:670.242 - 0.038ms returns 0
T83F4 000:670.270 JLINK_WriteReg(R11, 0x00000000)
T83F4 000:670.296 - 0.038ms returns 0
T83F4 000:670.324 JLINK_WriteReg(R12, 0x00000000)
T83F4 000:670.350 - 0.038ms returns 0
T83F4 000:670.377 JLINK_WriteReg(R13 (SP), 0x20001000)
T83F4 000:670.404 - 0.040ms returns 0
T83F4 000:670.432 JLINK_WriteReg(R14, 0x20000001)
T83F4 000:670.458 - 0.039ms returns 0
T83F4 000:670.486 JLINK_WriteReg(R15 (PC), 0x20000274)
T83F4 000:670.512 - 0.039ms returns 0
T83F4 000:670.540 JLINK_WriteReg(XPSR, 0x01000000)
T83F4 000:670.566 - 0.039ms returns 0
T83F4 000:670.594 JLINK_WriteReg(MSP, 0x20001000)
T83F4 000:670.619 - 0.038ms returns 0
T83F4 000:670.647 JLINK_WriteReg(PSP, 0x20001000)
T83F4 000:670.673 - 0.039ms returns 0
T83F4 000:670.700 JLINK_WriteReg(CFBP, 0x00000000)
T83F4 000:670.724 - 0.034ms returns 0
T83F4 000:670.748 JLINK_SetBPEx(Addr = 0x20000000, Type = 0xFFFFFFF2)
T83F4 000:670.773 - 0.036ms returns 0x00000007
T83F4 000:670.799 JLINK_Go()
T83F4 000:670.887   CPU_ReadMem(4 bytes @ 0xE0001000)
T83F4 000:674.131 - 3.347ms
T83F4 000:674.167 JLINK_IsHalted()
T83F4 000:674.926 - 0.783ms returns FALSE
T83F4 000:674.973 JLINK_HasError()
T83F4 000:677.899 JLINK_IsHalted()
T83F4 000:678.560 - 0.685ms returns FALSE
T83F4 000:678.608 JLINK_HasError()
T83F4 000:679.865 JLINK_IsHalted()
T83F4 000:680.453 - 0.606ms returns FALSE
T83F4 000:680.491 JLINK_HasError()
T83F4 000:681.881 JLINK_IsHalted()
T83F4 000:682.627 - 0.768ms returns FALSE
T83F4 000:682.668 JLINK_HasError()
T83F4 000:683.859 JLINK_IsHalted()
T83F4 000:684.517 - 0.672ms returns FALSE
T83F4 000:684.544 JLINK_HasError()
T83F4 000:685.852 JLINK_IsHalted()
T83F4 000:686.406 - 0.567ms returns FALSE
T83F4 000:686.428 JLINK_HasError()
T83F4 000:687.830 JLINK_IsHalted()
T83F4 000:690.384   CPU_ReadMem(2 bytes @ 0x20000000)
T83F4 000:690.886 - 3.064ms returns TRUE
T83F4 000:690.902 JLINK_ReadReg(R15 (PC))
T83F4 000:690.917 - 0.019ms returns 0x20000000
T83F4 000:690.929 JLINK_ClrBPEx(BPHandle = 0x00000007)
T83F4 000:690.941 - 0.017ms returns 0x00
T83F4 000:690.953 JLINK_ReadReg(R0)
T83F4 000:690.964 - 0.016ms returns 0x00000000
T83F4 000:691.388 JLINK_WriteMem(0x2000034C, 0xB4 Bytes, ...)
T83F4 000:691.404   Data:  18 40 10 60 10 68 20 F4 80 20 10 60 00 20 08 60 ...
T83F4 000:691.427   CPU_WriteMem(180 bytes @ 0x2000034C)
T83F4 000:692.665 - 1.284ms returns 0xB4
T83F4 000:692.681 JLINK_WriteMem(0x20000400, 0x34C Bytes, ...)
T83F4 000:692.693   Data:  40 F2 06 20 01 F0 EE FD 43 F6 4A 20 C0 F6 02 00 ...
T83F4 000:692.713   CPU_WriteMem(844 bytes @ 0x20000400)
T83F4 000:695.917 - 3.249ms returns 0x34C
T83F4 000:695.939 JLINK_HasError()
T83F4 000:695.953 JLINK_WriteReg(R0, 0x08020800)
T83F4 000:695.967 - 0.019ms returns 0
T83F4 000:695.979 JLINK_WriteReg(R1, 0x00000400)
T83F4 000:695.990 - 0.016ms returns 0
T83F4 000:696.002 JLINK_WriteReg(R2, 0x2000034C)
T83F4 000:696.013 - 0.016ms returns 0
T83F4 000:696.025 JLINK_WriteReg(R3, 0x00000000)
T83F4 000:696.036 - 0.016ms returns 0
T83F4 000:696.048 JLINK_WriteReg(R4, 0x00000000)
T83F4 000:696.059 - 0.016ms returns 0
T83F4 000:696.071 JLINK_WriteReg(R5, 0x00000000)
T83F4 000:696.082 - 0.016ms returns 0
T83F4 000:696.093 JLINK_WriteReg(R6, 0x00000000)
T83F4 000:696.104 - 0.016ms returns 0
T83F4 000:696.116 JLINK_WriteReg(R7, 0x00000000)
T83F4 000:696.127 - 0.016ms returns 0
T83F4 000:696.139 JLINK_WriteReg(R8, 0x00000000)
T83F4 000:696.150 - 0.016ms returns 0
T83F4 000:696.162 JLINK_WriteReg(R9, 0x20000348)
T83F4 000:696.173 - 0.016ms returns 0
T83F4 000:696.184 JLINK_WriteReg(R10, 0x00000000)
T83F4 000:696.195 - 0.016ms returns 0
T83F4 000:696.207 JLINK_WriteReg(R11, 0x00000000)
T83F4 000:696.218 - 0.016ms returns 0
T83F4 000:696.229 JLINK_WriteReg(R12, 0x00000000)
T83F4 000:696.240 - 0.016ms returns 0
T83F4 000:696.252 JLINK_WriteReg(R13 (SP), 0x20001000)
T83F4 000:696.264 - 0.017ms returns 0
T83F4 000:696.275 JLINK_WriteReg(R14, 0x20000001)
T83F4 000:696.286 - 0.016ms returns 0
T83F4 000:696.298 JLINK_WriteReg(R15 (PC), 0x20000274)
T83F4 000:696.309 - 0.016ms returns 0
T83F4 000:696.321 JLINK_WriteReg(XPSR, 0x01000000)
T83F4 000:696.332 - 0.016ms returns 0
T83F4 000:696.344 JLINK_WriteReg(MSP, 0x20001000)
T83F4 000:696.355 - 0.016ms returns 0
T83F4 000:696.366 JLINK_WriteReg(PSP, 0x20001000)
T83F4 000:696.377 - 0.016ms returns 0
T83F4 000:696.389 JLINK_WriteReg(CFBP, 0x00000000)
T83F4 000:696.400 - 0.016ms returns 0
T83F4 000:696.411 JLINK_SetBPEx(Addr = 0x20000000, Type = 0xFFFFFFF2)
T83F4 000:696.423 - 0.017ms returns 0x00000008
T83F4 000:696.435 JLINK_Go()
T83F4 000:696.453   CPU_ReadMem(4 bytes @ 0xE0001000)
T83F4 000:699.500 - 3.086ms
T83F4 000:699.530 JLINK_IsHalted()
T83F4 000:700.027 - 0.503ms returns FALSE
T83F4 000:700.040 JLINK_HasError()
T83F4 000:701.827 JLINK_IsHalted()
T83F4 000:702.408 - 0.587ms returns FALSE
T83F4 000:702.422 JLINK_HasError()
T83F4 000:703.794 JLINK_IsHalted()
T83F4 000:704.361 - 0.587ms returns FALSE
T83F4 000:704.389 JLINK_HasError()
T83F4 000:705.783 JLINK_IsHalted()
T83F4 000:706.511 - 0.734ms returns FALSE
T83F4 000:706.525 JLINK_HasError()
T83F4 000:707.791 JLINK_IsHalted()
T83F4 000:708.364 - 0.580ms returns FALSE
T83F4 000:708.379 JLINK_HasError()
T83F4 000:709.774 JLINK_IsHalted()
T83F4 000:710.350 - 0.601ms returns FALSE
T83F4 000:710.384 JLINK_HasError()
T83F4 000:711.754 JLINK_IsHalted()
T83F4 000:712.268 - 0.542ms returns FALSE
T83F4 000:712.307 JLINK_HasError()
T83F4 000:713.774 JLINK_IsHalted()
T83F4 000:716.467   CPU_ReadMem(2 bytes @ 0x20000000)
T83F4 000:717.119 - 3.356ms returns TRUE
T83F4 000:717.142 JLINK_ReadReg(R15 (PC))
T83F4 000:717.162 - 0.027ms returns 0x20000000
T83F4 000:717.180 JLINK_ClrBPEx(BPHandle = 0x00000008)
T83F4 000:717.198 - 0.026ms returns 0x00
T83F4 000:717.216 JLINK_ReadReg(R0)
T83F4 000:717.234 - 0.025ms returns 0x00000000
T83F4 000:717.751 JLINK_WriteMem(0x2000034C, 0xB4 Bytes, ...)
T83F4 000:717.774   Data:  01 28 25 DB FF E7 BD F8 0C 00 BD F8 0E 10 88 42 ...
T83F4 000:717.809   CPU_WriteMem(180 bytes @ 0x2000034C)
T83F4 000:719.197 - 1.468ms returns 0xB4
T83F4 000:719.232 JLINK_WriteMem(0x20000400, 0x34C Bytes, ...)
T83F4 000:719.252   Data:  FF E7 9D F8 03 00 02 28 28 D8 FF E7 BD F8 04 00 ...
T83F4 000:719.283   CPU_WriteMem(844 bytes @ 0x20000400)
T83F4 000:722.632 - 3.429ms returns 0x34C
T83F4 000:722.681 JLINK_HasError()
T83F4 000:722.709 JLINK_WriteReg(R0, 0x08020C00)
T83F4 000:722.739 - 0.042ms returns 0
T83F4 000:722.766 JLINK_WriteReg(R1, 0x00000400)
T83F4 000:722.792 - 0.038ms returns 0
T83F4 000:722.819 JLINK_WriteReg(R2, 0x2000034C)
T83F4 000:722.843 - 0.037ms returns 0
T83F4 000:722.873 JLINK_WriteReg(R3, 0x00000000)
T83F4 000:722.908 - 0.052ms returns 0
T83F4 000:722.945 JLINK_WriteReg(R4, 0x00000000)
T83F4 000:722.980 - 0.052ms returns 0
T83F4 000:723.017 JLINK_WriteReg(R5, 0x00000000)
T83F4 000:723.052 - 0.052ms returns 0
T83F4 000:723.091 JLINK_WriteReg(R6, 0x00000000)
T83F4 000:723.125 - 0.052ms returns 0
T83F4 000:723.162 JLINK_WriteReg(R7, 0x00000000)
T83F4 000:723.197 - 0.051ms returns 0
T83F4 000:723.234 JLINK_WriteReg(R8, 0x00000000)
T83F4 000:723.269 - 0.052ms returns 0
T83F4 000:723.307 JLINK_WriteReg(R9, 0x20000348)
T83F4 000:723.341 - 0.052ms returns 0
T83F4 000:723.378 JLINK_WriteReg(R10, 0x00000000)
T83F4 000:723.413 - 0.052ms returns 0
T83F4 000:723.450 JLINK_WriteReg(R11, 0x00000000)
T83F4 000:723.486 - 0.046ms returns 0
T83F4 000:723.510 JLINK_WriteReg(R12, 0x00000000)
T83F4 000:723.534 - 0.034ms returns 0
T83F4 000:723.559 JLINK_WriteReg(R13 (SP), 0x20001000)
T83F4 000:723.583 - 0.035ms returns 0
T83F4 000:723.608 JLINK_WriteReg(R14, 0x20000001)
T83F4 000:723.631 - 0.035ms returns 0
T83F4 000:723.656 JLINK_WriteReg(R15 (PC), 0x20000274)
T83F4 000:723.680 - 0.035ms returns 0
T83F4 000:723.705 JLINK_WriteReg(XPSR, 0x01000000)
T83F4 000:723.729 - 0.035ms returns 0
T83F4 000:723.754 JLINK_WriteReg(MSP, 0x20001000)
T83F4 000:723.777 - 0.035ms returns 0
T83F4 000:723.803 JLINK_WriteReg(PSP, 0x20001000)
T83F4 000:723.826 - 0.035ms returns 0
T83F4 000:723.851 JLINK_WriteReg(CFBP, 0x00000000)
T83F4 000:723.874 - 0.034ms returns 0
T83F4 000:723.900 JLINK_SetBPEx(Addr = 0x20000000, Type = 0xFFFFFFF2)
T83F4 000:723.925 - 0.036ms returns 0x00000009
T83F4 000:723.950 JLINK_Go()
T83F4 000:723.982   CPU_ReadMem(4 bytes @ 0xE0001000)
T83F4 000:726.909 - 2.988ms
T83F4 000:726.962 JLINK_IsHalted()
T83F4 000:727.647 - 0.712ms returns FALSE
T83F4 000:727.697 JLINK_HasError()
T83F4 000:729.712 JLINK_IsHalted()
T83F4 000:730.488 - 0.807ms returns FALSE
T83F4 000:730.536 JLINK_HasError()
T83F4 000:731.704 JLINK_IsHalted()
T83F4 000:732.359 - 0.681ms returns FALSE
T83F4 000:732.404 JLINK_HasError()
T83F4 000:733.722 JLINK_IsHalted()
T83F4 000:734.283 - 0.590ms returns FALSE
T83F4 000:734.330 JLINK_HasError()
T83F4 000:737.689 JLINK_IsHalted()
T83F4 000:738.450 - 0.779ms returns FALSE
T83F4 000:738.490 JLINK_HasError()
T83F4 000:739.679 JLINK_IsHalted()
T83F4 000:740.337 - 0.686ms returns FALSE
T83F4 000:740.388 JLINK_HasError()
T83F4 000:741.658 JLINK_IsHalted()
T83F4 000:744.257   CPU_ReadMem(2 bytes @ 0x20000000)
T83F4 000:744.993 - 3.368ms returns TRUE
T83F4 000:745.051 JLINK_ReadReg(R15 (PC))
T83F4 000:745.094 - 0.059ms returns 0x20000000
T83F4 000:745.132 JLINK_ClrBPEx(BPHandle = 0x00000009)
T83F4 000:745.169 - 0.053ms returns 0x00
T83F4 000:745.211 JLINK_ReadReg(R0)
T83F4 000:745.244 - 0.049ms returns 0x00000000
T83F4 000:746.985 JLINK_WriteMem(0x2000034C, 0xB4 Bytes, ...)
T83F4 000:747.029   Data:  90 43 08 60 08 E0 00 9A 46 F2 14 61 C4 F2 00 01 ...
T83F4 000:747.086   CPU_WriteMem(180 bytes @ 0x2000034C)
T83F4 000:748.572 - 1.617ms returns 0xB4
T83F4 000:748.621 JLINK_WriteMem(0x20000400, 0x34C Bytes, ...)
T83F4 000:748.648   Data:  03 98 01 38 03 90 EA E7 05 98 40 68 C0 07 20 B9 ...
T83F4 000:748.693   CPU_WriteMem(844 bytes @ 0x20000400)
T83F4 000:752.184 - 3.610ms returns 0x34C
T83F4 000:752.265 JLINK_HasError()
T83F4 000:752.312 JLINK_WriteReg(R0, 0x08021000)
T83F4 000:752.363 - 0.071ms returns 0
T83F4 000:752.408 JLINK_WriteReg(R1, 0x00000400)
T83F4 000:752.449 - 0.062ms returns 0
T83F4 000:752.494 JLINK_WriteReg(R2, 0x2000034C)
T83F4 000:752.523 - 0.043ms returns 0
T83F4 000:752.554 JLINK_WriteReg(R3, 0x00000000)
T83F4 000:752.583 - 0.043ms returns 0
T83F4 000:752.614 JLINK_WriteReg(R4, 0x00000000)
T83F4 000:752.645 - 0.045ms returns 0
T83F4 000:752.676 JLINK_WriteReg(R5, 0x00000000)
T83F4 000:752.705 - 0.043ms returns 0
T83F4 000:752.737 JLINK_WriteReg(R6, 0x00000000)
T83F4 000:752.766 - 0.043ms returns 0
T83F4 000:752.805 JLINK_WriteReg(R7, 0x00000000)
T83F4 000:752.860 - 0.082ms returns 0
T83F4 000:752.918 JLINK_WriteReg(R8, 0x00000000)
T83F4 000:752.973 - 0.081ms returns 0
T83F4 000:753.031 JLINK_WriteReg(R9, 0x20000348)
T83F4 000:753.085 - 0.079ms returns 0
T83F4 000:753.139 JLINK_WriteReg(R10, 0x00000000)
T83F4 000:753.188 - 0.073ms returns 0
T83F4 000:753.240 JLINK_WriteReg(R11, 0x00000000)
T83F4 000:753.289 - 0.074ms returns 0
T83F4 000:753.342 JLINK_WriteReg(R12, 0x00000000)
T83F4 000:753.391 - 0.073ms returns 0
T83F4 000:753.444 JLINK_WriteReg(R13 (SP), 0x20001000)
T83F4 000:753.495 - 0.076ms returns 0
T83F4 000:753.548 JLINK_WriteReg(R14, 0x20000001)
T83F4 000:753.591 - 0.059ms returns 0
T83F4 000:753.625 JLINK_WriteReg(R15 (PC), 0x20000274)
T83F4 000:753.656 - 0.046ms returns 0
T83F4 000:753.694 JLINK_WriteReg(XPSR, 0x01000000)
T83F4 000:753.725 - 0.046ms returns 0
T83F4 000:753.759 JLINK_WriteReg(MSP, 0x20001000)
T83F4 000:753.789 - 0.046ms returns 0
T83F4 000:753.825 JLINK_WriteReg(PSP, 0x20001000)
T83F4 000:753.856 - 0.046ms returns 0
T83F4 000:753.894 JLINK_WriteReg(CFBP, 0x00000000)
T83F4 000:753.927 - 0.049ms returns 0
T83F4 000:753.965 JLINK_SetBPEx(Addr = 0x20000000, Type = 0xFFFFFFF2)
T83F4 000:754.001 - 0.051ms returns 0x0000000A
T83F4 000:754.039 JLINK_Go()
T83F4 000:754.084   CPU_ReadMem(4 bytes @ 0xE0001000)
T83F4 000:757.422 - 3.436ms
T83F4 000:757.523 JLINK_IsHalted()
T83F4 000:758.199 - 0.711ms returns FALSE
T83F4 000:758.265 JLINK_HasError()
T83F4 000:761.617 JLINK_IsHalted()
T83F4 000:762.198 - 0.599ms returns FALSE
T83F4 000:762.238 JLINK_HasError()
T83F4 000:763.594 JLINK_IsHalted()
T83F4 000:764.372 - 0.809ms returns FALSE
T83F4 000:764.428 JLINK_HasError()
T83F4 000:765.596 JLINK_IsHalted()
T83F4 000:766.260 - 0.694ms returns FALSE
T83F4 000:766.320 JLINK_HasError()
T83F4 000:767.592 JLINK_IsHalted()
T83F4 000:768.200 - 0.638ms returns FALSE
T83F4 000:768.260 JLINK_HasError()
T83F4 000:769.570 JLINK_IsHalted()
T83F4 000:770.316 - 0.770ms returns FALSE
T83F4 000:770.368 JLINK_HasError()
T83F4 000:771.563 JLINK_IsHalted()
T83F4 000:774.256   CPU_ReadMem(2 bytes @ 0x20000000)
T83F4 000:775.135 - 3.595ms returns TRUE
T83F4 000:775.191 JLINK_ReadReg(R15 (PC))
T83F4 000:775.241 - 0.072ms returns 0x20000000
T83F4 000:775.290 JLINK_ClrBPEx(BPHandle = 0x0000000A)
T83F4 000:775.340 - 0.079ms returns 0x00
T83F4 000:775.397 JLINK_ReadReg(R0)
T83F4 000:775.467 - 0.093ms returns 0x00000000
T83F4 000:776.789 JLINK_WriteMem(0x2000034C, 0xB4 Bytes, ...)
T83F4 000:776.961   Data:  FF E7 03 20 8D F8 0F 00 6C E0 02 98 9D F8 03 10 ...
T83F4 000:777.042   CPU_WriteMem(180 bytes @ 0x2000034C)
T83F4 000:778.582 - 1.834ms returns 0xB4
T83F4 000:778.653 JLINK_WriteMem(0x20000400, 0x34C Bytes, ...)
T83F4 000:778.695   Data:  0F 00 02 99 9D F8 03 20 01 EB 02 11 C1 F8 8C 01 ...
T83F4 000:778.774   CPU_WriteMem(844 bytes @ 0x20000400)
T83F4 000:782.220 - 3.598ms returns 0x34C
T83F4 000:782.287 JLINK_HasError()
T83F4 000:782.347 JLINK_WriteReg(R0, 0x08021400)
T83F4 000:782.408 - 0.087ms returns 0
T83F4 000:782.467 JLINK_WriteReg(R1, 0x00000400)
T83F4 000:782.523 - 0.083ms returns 0
T83F4 000:782.582 JLINK_WriteReg(R2, 0x2000034C)
T83F4 000:782.637 - 0.083ms returns 0
T83F4 000:782.696 JLINK_WriteReg(R3, 0x00000000)
T83F4 000:782.751 - 0.082ms returns 0
T83F4 000:782.810 JLINK_WriteReg(R4, 0x00000000)
T83F4 000:782.864 - 0.081ms returns 0
T83F4 000:782.922 JLINK_WriteReg(R5, 0x00000000)
T83F4 000:782.977 - 0.080ms returns 0
T83F4 000:783.034 JLINK_WriteReg(R6, 0x00000000)
T83F4 000:783.089 - 0.081ms returns 0
T83F4 000:783.147 JLINK_WriteReg(R7, 0x00000000)
T83F4 000:783.201 - 0.081ms returns 0
T83F4 000:783.259 JLINK_WriteReg(R8, 0x00000000)
T83F4 000:783.314 - 0.082ms returns 0
T83F4 000:783.372 JLINK_WriteReg(R9, 0x20000348)
T83F4 000:783.427 - 0.081ms returns 0
T83F4 000:783.484 JLINK_WriteReg(R10, 0x00000000)
T83F4 000:783.534 - 0.074ms returns 0
T83F4 000:783.663 JLINK_WriteReg(R11, 0x00000000)
T83F4 000:783.716 - 0.078ms returns 0
T83F4 000:783.770 JLINK_WriteReg(R12, 0x00000000)
T83F4 000:783.820 - 0.075ms returns 0
T83F4 000:783.873 JLINK_WriteReg(R13 (SP), 0x20001000)
T83F4 000:783.925 - 0.076ms returns 0
T83F4 000:783.979 JLINK_WriteReg(R14, 0x20000001)
T83F4 000:784.029 - 0.075ms returns 0
T83F4 000:784.082 JLINK_WriteReg(R15 (PC), 0x20000274)
T83F4 000:784.133 - 0.075ms returns 0
